Circuit: * C:\Users\HoP\Documents\GitHub\LTspice\03-offset voltage - bias & offset current\01-AD8605\03-AD8605 Vos invert amplifier.asc

Instance "m:u1:6": Length shorter than recommended for a level 2 MOSFET.
Instance "m:u1:5": Length shorter than recommended for a level 2 MOSFET.
Instance "m:u1:4": Length shorter than recommended for a level 2 MOSFET.
Instance "m:u1:3": Length shorter than recommended for a level 2 MOSFET.
Instance "m:u1:2": Length shorter than recommended for a level 2 MOSFET.
Instance "m:u1:1": Length shorter than recommended for a level 2 MOSFET.
Direct Newton iteration for .op point succeeded.
Semiconductor Device Operating Points:
                        --- Diodes ---
Name:    d:u1:4      d:u1:3      d:u1:2      d:u1:1
Model:    u1:dx       u1:dx       u1:dx       u1:dx
Id:     -1.89e-12   -1.94e-12    1.00e-04   -4.30e-12
Vd:     -1.88e+00   -1.93e+00    5.96e-01   -4.29e+00
Req:     1.00e+12    1.00e+12    2.59e+02    1.00e+12
CAP:     0.00e+00    0.00e+00    0.00e+00    0.00e+00

                        --- MOSFET Transistors ---
Name:        m:u1:6      m:u1:5      m:u1:4      m:u1:3      m:u1:2
Model:       u1:nox      u1:pox      u1:nix      u1:nix      u1:pix
Id:          5.90e-05   -1.49e-04    1.06e-11    1.06e-11   -5.00e-05
Vgs:         4.14e-01   -4.90e-01    3.07e-01    3.07e-01   -4.07e-01
Vds:         9.96e-02   -4.91e+00    5.31e+00    5.31e+00   -2.18e-01
Vbs:         0.00e+00    0.00e+00    0.00e+00    0.00e+00    0.00e+00
Vth:         3.28e-01   -3.28e-01    3.28e-01    3.28e-01   -3.28e-01
Vdsat:       8.56e-02   -1.62e-01    0.00e+00    0.00e+00   -7.90e-02
Gm:          1.38e-03    1.84e-03    0.00e+00    0.00e+00    1.27e-03
Gds:         5.91e-07    1.57e-06    0.00e+00    0.00e+00    5.01e-07
Gmb:         0.00e+00    0.00e+00    0.00e+00    0.00e+00    0.00e+00
Cbd:         0.00e+00    0.00e+00    0.00e+00    0.00e+00    0.00e+00
Cbs:         0.00e+00    0.00e+00    0.00e+00    0.00e+00    0.00e+00
Cgsov:       0.00e+00    0.00e+00    0.00e+00    0.00e+00    0.00e+00
Cgdov:       0.00e+00    0.00e+00    0.00e+00    0.00e+00    0.00e+00
Cgbov:       0.00e+00    0.00e+00    0.00e+00    0.00e+00    0.00e+00
Cgs:         3.71e-13    2.49e-13    3.43e-19    3.43e-19    3.68e-19
Cgd:         0.00e+00    0.00e+00    0.00e+00    0.00e+00    0.00e+00
Cgb:         0.00e+00    0.00e+00    1.94e-20    1.94e-20    0.00e+00

Name:        m:u1:1
Model:       u1:pix
Id:         -5.00e-05
Vgs:        -4.07e-01
Vds:        -2.18e-01
Vbs:         0.00e+00
Vth:        -3.28e-01
Vdsat:      -7.90e-02
Gm:          1.27e-03
Gds:         5.01e-07
Gmb:         0.00e+00
Cbd:         0.00e+00
Cbs:         0.00e+00
Cgsov:       0.00e+00
Cgdov:       0.00e+00
Cgbov:       0.00e+00
Cgs:         3.68e-19
Cgd:         0.00e+00
Cgb:         0.00e+00



v_out: v(out)=0.0895802
vos: (v(out)-(v(inp)*gain))/gain=-0.000104198


Date: Tue Mar 12 18:20:52 2024
Total elapsed time: 0.073 seconds.

tnom = 27
temp = 27
method = trap
totiter = 12
traniter = 0
tranpoints = 0
accept = 0
rejected = 0
matrix size = 45
fillins = 8
solver = Normal
Matrix Compiler1: 2.92 KB object code size
Matrix Compiler2: 4.31 KB object code size
