Circuit: * C:\Users\SGI-U3\Documents\GitHub\LTspice\02-basics\10-subtractor.asc

Direct Newton iteration for .op point succeeded.
Semiconductor Device Operating Points:
                        --- Diodes ---
Name:    d:u1:1      d:u1:4
Model:    u1:x        u1:di
Id:      1.05e-18   -1.34e-15
Vd:      1.04e-06   -1.34e-06
Req:     1.00e-12    1.00e-09
CAP:     0.00e+00    0.00e+00

                        --- VDMOSFET Transistors ---
Name:        m:u1:1      m:u1:2
Model:        u1:n        u1:p
Id:          2.25e-03   -2.25e-03
Vgs:        -4.45e-08   -4.45e-08
Vds:         1.70e+01   -1.90e+01
Vth:        -3.00e-01    3.00e-01
Gm:          1.50e-02    1.50e-02
Gds:         0.00e+00    0.00e+00
Cgs:         0.00e+00    0.00e+00
Cgd:         0.00e+00    0.00e+00
Cbody:       0.00e+00    0.00e+00



Date: Wed Feb 28 08:55:25 2024
Total elapsed time: 0.149 seconds.

tnom = 27
temp = 27
method = trap
totiter = 17
traniter = 0
tranpoints = 0
accept = 0
rejected = 0
matrix size = 14
fillins = 3
solver = Normal
Avg thread counts: 8.0/0.0/8.0/8.0
Matrix Compiler1: 796 bytes object code size
Matrix Compiler2: 1.30 KB object code size
