LTspice 24.0.9 for Windows
Circuit: * C:\Users\hop\Documents\GitHub\LTspice\03-offset voltage - bias & offset current\04-LT1013\01-lt1013_offset_voltage.asc
Start Time: Thu Jan  9 21:36:50 2025
solver = Normal
Maximum thread count: 4
tnom = 27
temp = 27
method = modified trap
Direct Newton iteration for .op point succeeded.
Semiconductor Device Operating Points:
                        --- Diodes ---
Name:    d:u1:1      d:u1:4      d:u1:5      d:u1:6      d:u1:2
Model:    u1:xu       u1:xd       u1:yu       u1:yd     u1:dbias
Id:     -1.20e-10   -1.20e-10    0.00e+00    0.00e+00   -1.20e-08
Vd:     -1.20e+01   -1.20e+01    0.00e+00    0.00e+00   -1.20e+01
Req:     1.00e-11    1.00e-11    1.00e-12    1.00e-12    1.00e-03
CAP:     0.00e+00    0.00e+00    0.00e+00    0.00e+00    0.00e+00

Name:    d:u1:3      d:u2:1      d:u2:4      d:u2:5      d:u2:6
Model:  u1:dbias      u2:xu       u2:xd       u2:yu       u2:yd
Id:     -1.20e-08   -1.20e-10   -1.20e-10   -8.58e-19    8.58e-19
Vd:     -1.20e+01   -1.20e+01   -1.20e+01   -8.57e-07    8.57e-07
Req:     1.00e-03    1.00e-11    1.00e-11    1.00e-12    1.00e-12
CAP:     0.00e+00    0.00e+00    0.00e+00    0.00e+00    0.00e+00

Name:    d:u2:2      d:u2:3      d:u3:1      d:u3:4      d:u3:5
Model:  u2:dbias    u2:dbias      u3:xu       u3:xd       u3:yu
Id:     -1.20e-08   -1.20e-08   -1.20e-10   -1.20e-10   -7.72e-20
Vd:     -1.20e+01   -1.20e+01   -1.20e+01   -1.20e+01   -7.71e-08
Req:     1.00e-03    1.00e-03    1.00e-11    1.00e-11    1.00e-12
CAP:     0.00e+00    0.00e+00    0.00e+00    0.00e+00    0.00e+00

Name:    d:u3:6      d:u3:2      d:u3:3      d:u4:1      d:u4:4
Model:    u3:yd     u3:dbias    u3:dbias      u4:xu       u4:xd
Id:      7.72e-20   -1.20e-08   -1.20e-08   -1.19e-10   -1.21e-10
Vd:      7.71e-08   -1.20e+01   -1.20e+01   -1.19e+01   -1.21e+01
Req:     1.00e-12    1.00e-03    1.00e-03    1.00e-11    1.00e-11
CAP:     0.00e+00    0.00e+00    0.00e+00    0.00e+00    0.00e+00

Name:    d:u4:5      d:u4:6      d:u4:2      d:u4:3      d:u5:1
Model:    u4:yu       u4:yd     u4:dbias    u4:dbias      u5:xu
Id:      7.15e-16   -7.15e-16   -1.20e-08   -1.20e-08   -6.00e-11
Vd:      7.14e-04   -7.14e-04   -1.20e+01   -1.20e+01   -6.00e+00
Req:     1.00e-12    1.00e-12    1.00e-03    1.00e-03    1.00e-11
CAP:     0.00e+00    0.00e+00    0.00e+00    0.00e+00    0.00e+00

Name:    d:u5:4      d:u5:5      d:u5:6      d:u5:2      d:u5:3
Model:    u5:xd       u5:yu       u5:yd     u5:dbias    u5:dbias
Id:     -6.00e-11   -8.58e-19    8.58e-19   -1.20e-08   -1.20e-08
Vd:     -6.00e+00   -8.57e-07    8.57e-07   -6.00e+00   -6.00e+00
Req:     1.00e-11    1.00e-12    1.00e-12    1.00e-03    1.00e-03
CAP:     0.00e+00    0.00e+00    0.00e+00    0.00e+00    0.00e+00

                        --- VDMOSFET Transistors ---
Name:        m:u1:1      m:u1:2      m:u2:1      m:u2:2      m:u3:1
Model:        u1:n        u1:p        u2:n        u2:p        u3:n
Id:          3.50e-04   -3.50e-04    3.50e-04   -3.50e-04    3.50e-04
Vgs:         0.00e+00    0.00e+00   -8.57e-07   -8.57e-07   -7.71e-08
Vds:         1.20e+01   -1.20e+01    1.20e+01   -1.20e+01    1.20e+01
Vth:        -1.00e-01    1.00e-01   -1.00e-01    1.00e-01   -1.00e-01
Gm:          7.00e-03    7.00e-03    7.00e-03    7.00e-03    7.00e-03
Gds:         0.00e+00    0.00e+00    0.00e+00    0.00e+00    0.00e+00
Cgs:         0.00e+00    0.00e+00    0.00e+00    0.00e+00    0.00e+00
Cgd:         0.00e+00    0.00e+00    0.00e+00    0.00e+00    0.00e+00
Cbody:       0.00e+00    0.00e+00    0.00e+00    0.00e+00    0.00e+00

Name:        m:u3:2      m:u4:1      m:u4:2      m:u5:1      m:u5:2
Model:        u3:p        u4:n        u4:p        u5:n        u5:p
Id:         -3.50e-04    3.55e-04   -3.45e-04    3.50e-04   -3.50e-04
Vgs:        -7.71e-08    7.14e-04    7.14e-04   -8.57e-07   -8.57e-07
Vds:        -1.20e+01    1.19e+01   -1.21e+01    6.00e+00   -6.00e+00
Vth:         1.00e-01   -1.00e-01    1.00e-01   -1.00e-01    1.00e-01
Gm:          7.00e-03    7.05e-03    6.95e-03    7.00e-03    7.00e-03
Gds:         0.00e+00    0.00e+00    0.00e+00    0.00e+00    0.00e+00
Cgs:         0.00e+00    0.00e+00    0.00e+00    0.00e+00    0.00e+00
Cgd:         0.00e+00    0.00e+00    0.00e+00    0.00e+00    0.00e+00
Cbody:       0.00e+00    0.00e+00    0.00e+00    0.00e+00    0.00e+00




Total elapsed time: 0.555 seconds.

