Circuit: * C:\Users\HoP\Documents\GitHub\LTspice\02-basics\09-adder.asc

Direct Newton iteration for .op point succeeded.
Semiconductor Device Operating Points:
                        --- Diodes ---
Name:    d:u1:4      d:u1:1
Model:    u1:di       u1:x
Id:      8.17e-15    1.00e-13
Vd:      8.17e-06    1.00e-01
Req:     1.00e-09    1.00e-12
CAP:     0.00e+00    0.00e+00

                        --- VDMOSFET Transistors ---
Name:        m:u1:2      m:u1:1
Model:        u1:p        u1:n
Id:         -4.00e-03    1.00e-03
Vgs:        -1.00e-01   -1.00e-01
Vds:        -1.20e+01    2.40e+01
Vth:         3.00e-01   -3.00e-01
Gm:          2.00e-02    1.00e-02
Gds:         0.00e+00    0.00e+00
Cgs:         0.00e+00    0.00e+00
Cgd:         0.00e+00    0.00e+00
Cbody:       0.00e+00    0.00e+00



Date: Tue Feb 27 23:25:43 2024
Total elapsed time: 0.082 seconds.

tnom = 27
temp = 27
method = trap
totiter = 16
traniter = 0
tranpoints = 0
accept = 0
rejected = 0
matrix size = 13
fillins = 2
solver = Normal
Matrix Compiler1: 598 bytes object code size
Matrix Compiler2: 1.14 KB object code size
